
T1E78 000:066 SEGGER J-Link V4.68a Log File (0000ms, 0065ms total)
T1E78 000:066 DLL Compiled: Apr 12 2013 13:26:50 (0000ms, 0065ms total)
T1E78 000:066 Logging started @ 2018-01-06 13:59 (0000ms, 0065ms total)
T1E78 000:066 JLINK_SetWarnOutHandler(...) (0000ms, 0065ms total)
T1E78 000:066 JLINK_OpenEx(...)
Firmware: J-Link ARM-OB SAM7 compiled Jun  1 2012 09:33:42
Hardware: V2.10
S/N: 302116841  returns O.K. (0026ms, 0091ms total)
T1E78 000:092 JLINK_SetErrorOutHandler(...) (0000ms, 0091ms total)
T1E78 000:092 JLINK_ExecCommand("ProjectFile = "C:\Users\Administrator\Desktop\ÊÔÓÃ°æ\8-Ò°»ðM3-KEY£¨EXTI£©\Ò°»ðM3-KEY£¨PE5£©\USER\JLinkSettings.ini"", ...)  returns 0x00 (0000ms, 0091ms total)
T1E78 000:092 JLINK_ExecCommand("Device = STM32F103C8", ...)
                JLINK_AddMirrorAreaEx(Addr = 0x00000000, Size = 0x00000000) (0000ms, 0000ms total)
              Device "STM32F103C8" selected (64 KB flash, 20 KB RAM).  returns 0x00 (0000ms, 0091ms total)
T1E78 000:092 JLINK_ExecCommand("DisableConnectionTimeout", ...)  returns 0x00 (0000ms, 0091ms total)
T1E78 000:092 JLINK_GetHardwareVersion()  returns 0x5208 (0000ms, 0091ms total)
T1E78 000:092 JLINK_GetDLLVersion()  returns 46801 (0000ms, 0091ms total)
T1E78 000:092 JLINK_GetFirmwareString(...) (0000ms, 0091ms total)
T1E78 000:094 JLINK_GetDLLVersion()  returns 46801 (0000ms, 0091ms total)
T1E78 000:094 JLINK_GetCompileDateTime() (0000ms, 0091ms total)
T1E78 000:094 JLINK_GetFirmwareString(...) (0000ms, 0091ms total)
T1E78 000:094 JLINK_GetHardwareVersion()  returns 0x5208 (0000ms, 0091ms total)
T1E78 000:094 JLINK_TIF_Select(JLINKARM_TIF_JTAG)  returns 0x00 (0000ms, 0091ms total)
T1E78 000:094 JLINK_SetSpeed(2000) (0000ms, 0091ms total)
T1E78 000:095 JLINK_GetIdData(...) >0x2F8 JTAG>TotalIRLen = 9, IRPrint = 0x0011 >0x30 JTAG> >0x210 JTAG> >0x40 JTAG> >0x40 JTAG> >0x40 JTAG> >0x30 JTAG> >0x40 JTAG> >0x40 JTAG> >0x40 JTAG> >0x40 JTAG> >0x40 JTAG> >0x40 JTAG> >0x40 JTAG> >0x40 JTAG> >0x2F8 JTAG>TotalIRLen = 9, IRPrint = 0x0011 >0x30 JTAG> >0x210 JTAG> >0x80 JTAG> >0x40 JTAG> >0x40 JTAG> >0x50 JTAG> >0x40 JTAG> >0x40 JTAG> >0x40 JTAG> >0x50 JTAG> >0x40 JTAG> >0x40 JTAG> >0x40 JTAG> >0x30 JTAG> >0x40 JTAG> >0x50 JTAG> >0x40 JTAG>
 >0x38 JTAG> >0x80 JTAG> >0x40 JTAG> >0x40 JTAG> >0x50 JTAG> >0x40 JTAG> >0x40 JTAG> >0x40 JTAG> >0x50 JTAG> >0x40 JTAG> >0x40 JTAG> >0x30 JTAG> >0x40 JTAG> >0x40 JTAG> >0x40 JTAG> >0x40 JTAG> >0x40 JTAG> >0x50 JTAG> >0x40 JTAG> >0x80 JTAG> >0x40 JTAG> >0x30 JTAG> >0x40 JTAG> >0x40 JTAG> >0x40 JTAG> >0x40 JTAG> >0x40 JTAG> >0x50 JTAG> >0x40 JTAG> >0x80 JTAG> >0x40 JTAG> >0x30 JTAG> >0x40 JTAG> >0x50 JTAG> >0x40 JTAG> >0x40 JTAG> >0x40 JTAG> >0x30 JTAG> >0x40 JTAG> >0x50 JTAG> >0x40 JTAG>
Found Cortex-M3 r1p1, Little endian. >0x50 JTAG> >0x50 JTAG> >0x40 JTAG> >0x40 JTAG> >0x30 JTAG> >0x30 JTAG> >0x50 JTAG> >0x40 JTAG> >0x80 JTAG> >0x40 JTAG> >0x30 JTAG> >0x40 JTAG> >0x50 JTAG> >0x40 JTAG> >0x40 JTAG> >0x40 JTAG> >0x30 JTAG> >0x40 JTAG> >0x50 JTAG> >0x40 JTAG>TPIU fitted. >0x40 JTAG> >0x40 JTAG> >0x30 JTAG> >0x40 JTAG> >0x50 JTAG> >0x40 JTAG> >0x40 JTAG> >0x40 JTAG> >0x30 JTAG> >0x40 JTAG> >0x50 JTAG> >0x40 JTAG> >0x40 JTAG> >0x40 JTAG> >0x30 JTAG> >0x40 JTAG> >0x50 JTAG> >0x40 JTAG>
FPUnit: 6 code (BP) slots and 2 literal slots >0x40 JTAG> >0x40 JTAG> >0x30 JTAG> >0x40 JTAG> >0x50 JTAG> >0x40 JTAG> >0x40 JTAG> >0x40 JTAG> >0x30 JTAG> >0x40 JTAG> >0x50 JTAG> >0x40 JTAG> >0x40 JTAG> >0x40 JTAG> >0x30 JTAG> >0x30 JTAG> >0x50 JTAG> >0x40 JTAG> ScanLen=9 NumDevices=2 aId[0]=0x3BA00477 aIrRead[0]=0 aScanLen[0]=0 aScanRead[0]=0 (0135ms, 0227ms total)
T1E78 000:230 JLINK_JTAG_GetDeviceID(DeviceIndex = 0)  returns 0x3BA00477 (0000ms, 0227ms total)
T1E78 000:230 JLINK_JTAG_GetDeviceInfo(DeviceIndex = 0)  returns 0x00 (0000ms, 0227ms total)
T1E78 000:230 JLINK_JTAG_GetDeviceID(DeviceIndex = 1)  returns 0x16410041 (0001ms, 0228ms total)
T1E78 000:231 JLINK_JTAG_GetDeviceInfo(DeviceIndex = 1)  returns 0x00 (0000ms, 0228ms total)
T1E78 000:231 JLINK_GetDeviceFamily()  returns 3 (0000ms, 0228ms total)
T1E78 000:231 JLINK_ReadMem (0xE00FFFF0, 0x0010 Bytes, ...) -- CPU is running -- CPU_ReadMem(16 bytes @ 0xE00FFFF0) -- Data:  0D 00 00 00 10 00 00 00 05 00 00 00 B1 00 00 00  returns 0x00 (0004ms, 0232ms total)
T1E78 000:235 JLINK_ReadMem (0xE00FFFD0, 0x0020 Bytes, ...) -- CPU is running -- CPU_ReadMem(32 bytes @ 0xE00FFFD0) -- Data:  00 00 00 00 00 00 00 00 00 00 00 00 00 00 00 00 ...  returns 0x00 (0002ms, 0234ms total)
T1E78 000:237 JLINK_ReadMem (0xE00FF000, 0x0018 Bytes, ...) -- CPU is running -- CPU_ReadMem(24 bytes @ 0xE00FF000) -- Data:  03 F0 F0 FF 03 20 F0 FF 03 30 F0 FF 03 10 F0 FF ...  returns 0x00 (0001ms, 0235ms total)
T1E78 000:238 JLINK_ReadMemU32(0xE000ED00, 0x0001 Items, ...) -- CPU is running -- CPU_ReadMem(4 bytes @ 0xE000ED00) -- Data:  31 C2 1F 41  returns 0x01 (0001ms, 0236ms total)
T1E78 000:239 JLINK_SetResetType(JLINKARM_RESET_TYPE_NORMAL)  returns JLINKARM_RESET_TYPE_NORMAL (0000ms, 0236ms total)
T1E78 000:239 JLINK_Reset() >0x88 JTAG> >0x80 JTAG> >0x40 JTAG> >0x40 JTAG> >0x50 JTAG> >0x40 JTAG> >0x40 JTAG> >0x40 JTAG> >0x50 JTAG> >0x40 JTAG> >0x40 JTAG> >0x30 JTAG> >0x40 JTAG> >0x40 JTAG> >0x40 JTAG> >0x40 JTAG> >0x40 JTAG> >0x50 JTAG> >0x40 JTAG> >0x80 JTAG> >0x40 JTAG> >0x30 JTAG> >0x40 JTAG> >0x40 JTAG> >0x40 JTAG> >0x40 JTAG> >0x40 JTAG> >0x50 JTAG> >0x40 JTAG> >0x80 JTAG> >0x40 JTAG> >0x30 JTAG> >0x40 JTAG> >0x50 JTAG> >0x40 JTAG> >0x40 JTAG> >0x40 JTAG> >0x30 JTAG> >0x40 JTAG> >0x50 JTAG>
 >0x40 JTAG>Found Cortex-M3 r1p1, Little endian. >0x50 JTAG> >0x50 JTAG> >0x40 JTAG> >0x40 JTAG> >0x30 JTAG> >0x30 JTAG> >0x50 JTAG> >0x40 JTAG> >0x80 JTAG> >0x40 JTAG> >0x30 JTAG> >0x40 JTAG> >0x50 JTAG> >0x40 JTAG> >0x40 JTAG> >0x40 JTAG> >0x30 JTAG> >0x40 JTAG> >0x50 JTAG> >0x40 JTAG>TPIU fitted. >0x40 JTAG> >0x40 JTAG> >0x30 JTAG> >0x40 JTAG> >0x50 JTAG> >0x40 JTAG> >0x40 JTAG> >0x40 JTAG> >0x30 JTAG> >0x40 JTAG> >0x50 JTAG> >0x40 JTAG> >0x40 JTAG> >0x40 JTAG> >0x30 JTAG> >0x40 JTAG> >0x50 JTAG>
 >0x40 JTAG>FPUnit: 6 code (BP) slots and 2 literal slots >0x40 JTAG> >0x40 JTAG> >0x30 JTAG> >0x40 JTAG> >0x50 JTAG> >0x40 JTAG> >0x40 JTAG> >0x40 JTAG> >0x30 JTAG> >0x40 JTAG> >0x50 JTAG> >0x40 JTAG> >0x40 JTAG> >0x40 JTAG> >0x30 JTAG> >0x30 JTAG> >0x50 JTAG> >0x40 JTAG> -- CPU is running -- CPU_WriteMem(4 bytes @ 0xE000EDF0) -- CPU is running -- CPU_WriteMem(4 bytes @ 0xE000EDFC) -- CPU is running -- CPU_WriteMem(4 bytes @ 0xE000ED0C) -- CPU is running -- CPU_ReadMem(4 bytes @ 0xE000EDF0)
 -- CPU is running -- CPU_ReadMem(4 bytes @ 0xE000EDF0) -- CPU is running -- CPU_WriteMem(4 bytes @ 0xE000EDF0) -- CPU is running -- CPU_WriteMem(4 bytes @ 0xE000EDFC) -- CPU is running -- CPU_ReadMem(4 bytes @ 0xE000EDF0) >0xD0 JTAG> >0x40 JTAG> >0x30 JTAG> >0x40 JTAG> >0x50 JTAG> >0x40 JTAG> -- CPU_WriteMem(4 bytes @ 0xE000EDFC) -- CPU_WriteMem(4 bytes @ 0xE0001028) -- CPU_WriteMem(4 bytes @ 0xE0001038) -- CPU_WriteMem(4 bytes @ 0xE0001048) -- CPU_WriteMem(4 bytes @ 0xE0001058)
 -- CPU_WriteMem(4 bytes @ 0xE0002000) (0138ms, 0374ms total)
T1E78 000:377 JLINK_ReadReg(R15)  returns 0x08000100 (0000ms, 0374ms total)
T1E78 000:377 JLINK_ReadReg(XPSR)  returns 0x01000000 (0000ms, 0374ms total)
T1E78 000:377 JLINK_Halt()  returns 0x00 (0000ms, 0374ms total)
T1E78 000:377 JLINK_IsHalted()  returns TRUE (0000ms, 0374ms total)
T1E78 000:377 JLINK_ReadMemU32(0xE000EDF0, 0x0001 Items, ...) -- CPU_ReadMem(4 bytes @ 0xE000EDF0) -- Data:  03 00 03 00  returns 0x01 (0002ms, 0376ms total)
T1E78 000:379 JLINK_WriteU32(0xE000EDF0, 0xA05F0003) -- CPU_WriteMem(4 bytes @ 0xE000EDF0)  returns 0x00 (0001ms, 0377ms total)
T1E78 000:380 JLINK_WriteU32(0xE000EDFC, 0x01000000) -- CPU_WriteMem(4 bytes @ 0xE000EDFC)  returns 0x00 (0001ms, 0378ms total)
T1E78 000:391 JLINK_GetHWStatus(...)  returns 0x00 (0001ms, 0379ms total)
T1E78 000:392 JLINK_GetNumBPUnits(Type = 0xFFFFFF00)  returns 0x06 (0000ms, 0379ms total)
T1E78 000:392 JLINK_GetNumBPUnits(Type = 0xF0)  returns 0x2000 (0000ms, 0379ms total)
T1E78 000:392 JLINK_GetNumWPUnits()  returns 0x04 (0000ms, 0379ms total)
T1E78 000:393 JLINK_GetSpeed()  returns 0x7D0 (0000ms, 0379ms total)
T1E78 000:393 JLINK_ReadMemU32(0xE000E004, 0x0001 Items, ...) -- CPU_ReadMem(4 bytes @ 0xE000E004) -- Data:  01 00 00 00  returns 0x01 (0002ms, 0381ms total)
T1E78 000:395 JLINK_ReadMemU32(0xE000E004, 0x0001 Items, ...) -- CPU_ReadMem(4 bytes @ 0xE000E004) -- Data:  01 00 00 00  returns 0x01 (0003ms, 0384ms total)
T1E78 000:398 JLINK_WriteMem(0xE0001000, 0x001C Bytes, ...) -- Data:  01 00 00 00 00 00 00 00 00 00 00 00 00 00 00 00 ... -- CPU_WriteMem(28 bytes @ 0xE0001000)  returns 0x1C (0001ms, 0385ms total)
T1E78 000:399 JLINK_ReadMem (0xE0001000, 0x001C Bytes, ...) -- CPU_ReadMem(28 bytes @ 0xE0001000) -- Data:  01 00 00 40 00 00 00 00 00 00 00 00 00 00 00 00 ...  returns 0x00 (0001ms, 0386ms total)
T1E78 000:400 JLINK_ReadReg(R15)  returns 0x08000100 (0000ms, 0386ms total)
T1E78 000:400 JLINK_ReadReg(XPSR)  returns 0x01000000 (0000ms, 0386ms total)
T1E78 000:489 JLINK_SetResetType(JLINKARM_RESET_TYPE_NORMAL)  returns JLINKARM_RESET_TYPE_NORMAL (0000ms, 0386ms total)
T1E78 000:489 JLINK_Reset() >0x38 JTAG> >0x80 JTAG> >0x40 JTAG> >0x40 JTAG> >0x50 JTAG> >0x40 JTAG> >0x40 JTAG> >0x40 JTAG> >0x50 JTAG> >0x40 JTAG> >0x40 JTAG> >0x30 JTAG> >0x40 JTAG> >0x40 JTAG> >0x40 JTAG> >0x40 JTAG> >0x40 JTAG> >0x50 JTAG> >0x40 JTAG> >0x80 JTAG> >0x40 JTAG> >0x30 JTAG> >0x40 JTAG> >0x40 JTAG> >0x40 JTAG> >0x40 JTAG> >0x40 JTAG> >0x50 JTAG> >0x40 JTAG> >0x80 JTAG> >0x40 JTAG> >0x30 JTAG> >0x40 JTAG> >0x50 JTAG> >0x40 JTAG> >0x40 JTAG> >0x40 JTAG> >0x30 JTAG> >0x40 JTAG> >0x50 JTAG>
 >0x40 JTAG>Found Cortex-M3 r1p1, Little endian. >0x50 JTAG> >0x50 JTAG> >0x40 JTAG> >0x40 JTAG> >0x30 JTAG> >0x30 JTAG> >0x50 JTAG> >0x40 JTAG> >0x80 JTAG> >0x40 JTAG> >0x30 JTAG> >0x40 JTAG> >0x50 JTAG> >0x40 JTAG> >0x40 JTAG> >0x40 JTAG> >0x30 JTAG> >0x40 JTAG> >0x50 JTAG> >0x40 JTAG>TPIU fitted. >0x40 JTAG> >0x40 JTAG> >0x30 JTAG> >0x40 JTAG> >0x50 JTAG> >0x40 JTAG> >0x40 JTAG> >0x40 JTAG> >0x30 JTAG> >0x40 JTAG> >0x50 JTAG> >0x40 JTAG> >0x40 JTAG> >0x40 JTAG> >0x30 JTAG> >0x40 JTAG> >0x50 JTAG>
 >0x40 JTAG>FPUnit: 6 code (BP) slots and 2 literal slots >0x40 JTAG> >0x40 JTAG> >0x30 JTAG> >0x40 JTAG> >0x50 JTAG> >0x40 JTAG> >0x40 JTAG> >0x40 JTAG> >0x30 JTAG> >0x40 JTAG> >0x50 JTAG> >0x40 JTAG> >0x40 JTAG> >0x40 JTAG> >0x30 JTAG> >0x30 JTAG> >0x50 JTAG> >0x40 JTAG> -- CPU_WriteMem(4 bytes @ 0xE000EDF0) -- CPU_WriteMem(4 bytes @ 0xE000EDFC) -- CPU_WriteMem(4 bytes @ 0xE000ED0C) -- CPU_ReadMem(4 bytes @ 0xE000EDF0) -- CPU_ReadMem(4 bytes @ 0xE000EDF0) -- CPU_WriteMem(4 bytes @ 0xE000EDF0)
 -- CPU_WriteMem(4 bytes @ 0xE000EDFC) -- CPU is running -- CPU_ReadMem(4 bytes @ 0xE000EDF0) >0xD0 JTAG> >0x40 JTAG> >0x30 JTAG> >0x40 JTAG> >0x50 JTAG> >0x40 JTAG> -- CPU_WriteMem(4 bytes @ 0xE000EDFC) -- CPU_WriteMem(4 bytes @ 0xE0001028) -- CPU_WriteMem(4 bytes @ 0xE0001038) -- CPU_WriteMem(4 bytes @ 0xE0001048) -- CPU_WriteMem(4 bytes @ 0xE0001058) -- CPU_WriteMem(4 bytes @ 0xE0002000) (0143ms, 0529ms total)
T1E78 000:632 JLINK_ReadReg(R15)  returns 0x08000100 (0000ms, 0529ms total)
T1E78 000:632 JLINK_ReadReg(XPSR)  returns 0x01000000 (0000ms, 0529ms total)
T1E78 000:634 JLINK_ReadMem (0x08000100, 0x003C Bytes, ...) -- CPU_ReadMem(64 bytes @ 0x08000100) -- Updating C cache (64 bytes @ 0x08000100) -- Read from C cache (60 bytes @ 0x08000100) -- Data:  06 48 80 47 06 48 00 47 FE E7 FE E7 FE E7 FE E7 ...  returns 0x00 (0001ms, 0530ms total)
T1C78 002:104 JLINK_SetBPEx(Addr = 0x08000124, Type = 0xFFFFFFF2)  returns 0x00000001 (0002ms, 0532ms total)
T1C78 002:106 JLINK_Go() -- CPU_WriteMem(4 bytes @ 0xE0002000) -- CPU_WriteMem(4 bytes @ 0xE0002008) -- CPU_WriteMem(4 bytes @ 0xE000200C) -- CPU_WriteMem(4 bytes @ 0xE0002010) -- CPU_WriteMem(4 bytes @ 0xE0002014) -- CPU_WriteMem(4 bytes @ 0xE0002018) -- CPU_WriteMem(4 bytes @ 0xE000201C) (0010ms, 0542ms total)
T1C78 002:216 JLINK_IsHalted()  returns TRUE (0005ms, 0547ms total)
T1C78 002:221 JLINK_Halt()  returns 0x00 (0000ms, 0542ms total)
T1C78 002:221 JLINK_IsHalted()  returns TRUE (0000ms, 0542ms total)
T1C78 002:221 JLINK_IsHalted()  returns TRUE (0000ms, 0542ms total)
T1C78 002:221 JLINK_IsHalted()  returns TRUE (0000ms, 0542ms total)
T1C78 002:221 JLINK_ReadReg(R15)  returns 0x08000124 (0000ms, 0542ms total)
T1C78 002:221 JLINK_ReadReg(XPSR)  returns 0x61000000 (0000ms, 0542ms total)
T1C78 002:221 JLINK_ClrBPEx(BPHandle = 0x00000001)  returns 0x00 (0000ms, 0542ms total)
T1C78 002:221 JLINK_ReadMemU32(0xE000ED30, 0x0001 Items, ...) -- CPU_ReadMem(4 bytes @ 0xE000ED30) -- Data:  03 00 00 00  returns 0x01 (0001ms, 0543ms total)
T1C78 002:222 JLINK_ReadMemU32(0xE0001028, 0x0001 Items, ...) -- CPU_ReadMem(4 bytes @ 0xE0001028) -- Data:  00 00 00 00  returns 0x01 (0001ms, 0544ms total)
T1C78 002:223 JLINK_ReadMemU32(0xE0001038, 0x0001 Items, ...) -- CPU_ReadMem(4 bytes @ 0xE0001038) -- Data:  00 02 00 00  returns 0x01 (0001ms, 0545ms total)
T1C78 002:224 JLINK_ReadMemU32(0xE0001048, 0x0001 Items, ...) -- CPU_ReadMem(4 bytes @ 0xE0001048) -- Data:  00 00 00 00  returns 0x01 (0001ms, 0546ms total)
T1C78 002:225 JLINK_ReadMemU32(0xE0001058, 0x0001 Items, ...) -- CPU_ReadMem(4 bytes @ 0xE0001058) -- Data:  00 00 00 00  returns 0x01 (0001ms, 0547ms total)
T1C78 002:226 JLINK_ReadReg(R0)  returns 0x08000125 (0000ms, 0547ms total)
T1C78 002:226 JLINK_ReadReg(R1)  returns 0x20000428 (0000ms, 0547ms total)
T1C78 002:226 JLINK_ReadReg(R2)  returns 0x00000000 (0000ms, 0547ms total)
T1C78 002:226 JLINK_ReadReg(R3)  returns 0x08000D5D (0000ms, 0547ms total)
T1C78 002:226 JLINK_ReadReg(R4)  returns 0x08000D8C (0000ms, 0547ms total)
T1C78 002:226 JLINK_ReadReg(R5)  returns 0x08000D8C (0000ms, 0547ms total)
T1C78 002:226 JLINK_ReadReg(R6)  returns 0x00000000 (0000ms, 0547ms total)
T1C78 002:226 JLINK_ReadReg(R7)  returns 0x00000000 (0000ms, 0547ms total)
T1C78 002:226 JLINK_ReadReg(R8)  returns 0x00000000 (0000ms, 0547ms total)
T1C78 002:226 JLINK_ReadReg(R9)  returns 0x20000160 (0000ms, 0547ms total)
T1C78 002:226 JLINK_ReadReg(R10)  returns 0x00000000 (0000ms, 0547ms total)
T1C78 002:226 JLINK_ReadReg(R11)  returns 0x00000000 (0000ms, 0547ms total)
T1C78 002:226 JLINK_ReadReg(R12)  returns 0x00000010 (0000ms, 0547ms total)
T1C78 002:226 JLINK_ReadReg(R13)  returns 0x20000428 (0000ms, 0547ms total)
T1C78 002:226 JLINK_ReadReg(R14)  returns 0x08000D45 (0000ms, 0547ms total)
T1C78 002:226 JLINK_ReadReg(R15)  returns 0x08000124 (0000ms, 0547ms total)
T1C78 002:226 JLINK_ReadReg(XPSR)  returns 0x61000000 (0000ms, 0547ms total)
T1C78 002:226 JLINK_ReadReg(MSP)  returns 0x20000428 (0000ms, 0547ms total)
T1C78 002:226 JLINK_ReadReg(PSP)  returns 0x20000800 (0000ms, 0547ms total)
T1C78 002:226 JLINK_ReadReg(CFBP)  returns 0x00000000 (0000ms, 0547ms total)
T1E78 002:227 JLINK_ReadMemU32(0xE0001004, 0x0001 Items, ...) -- CPU_ReadMem(4 bytes @ 0xE0001004) -- Data:  78 19 00 00  returns 0x01 (0001ms, 0548ms total)
T1E78 002:230 JLINK_ReadMem (0x08000124, 0x003C Bytes, ...) -- CPU_ReadMem(128 bytes @ 0x08000100) -- Updating C cache (128 bytes @ 0x08000100) -- Read from C cache (60 bytes @ 0x08000124) -- Data:  00 F0 7E F8 08 21 03 48 00 F0 71 FB 00 F0 52 F8 ...  returns 0x00 (0002ms, 0550ms total)
T1E78 018:758 JLINK_Close() -- CPU_WriteMem(4 bytes @ 0xE0002008) >0x08 JTAG> (0564ms, 1114ms total)
T1E78 019:551 JLINK_Close() (0000ms, 1114ms total)
